<Qucs Dataset 24.2.1>
<indep frequency 200>
1.000000000000e+06
1.497487437186e+06
1.994974874372e+06
2.492462311558e+06
2.989949748744e+06
3.487437185930e+06
3.984924623116e+06
4.482412060302e+06
4.979899497487e+06
5.477386934673e+06
5.974874371859e+06
6.472361809045e+06
6.969849246231e+06
7.467336683417e+06
7.964824120603e+06
8.462311557789e+06
8.959798994975e+06
9.457286432161e+06
9.954773869347e+06
1.045226130653e+07
1.094974874372e+07
1.144723618090e+07
1.194472361809e+07
1.244221105528e+07
1.293969849246e+07
1.343718592965e+07
1.393467336683e+07
1.443216080402e+07
1.492964824121e+07
1.542713567839e+07
1.592462311558e+07
1.642211055276e+07
1.691959798995e+07
1.741708542714e+07
1.791457286432e+07
1.841206030151e+07
1.890954773869e+07
1.940703517588e+07
1.990452261307e+07
2.040201005025e+07
2.089949748744e+07
2.139698492462e+07
2.189447236181e+07
2.239195979899e+07
2.288944723618e+07
2.338693467337e+07
2.388442211055e+07
2.438190954774e+07
2.487939698492e+07
2.537688442211e+07
2.587437185930e+07
2.637185929648e+07
2.686934673367e+07
2.736683417085e+07
2.786432160804e+07
2.836180904523e+07
2.885929648241e+07
2.935678391960e+07
2.985427135678e+07
3.035175879397e+07
3.084924623116e+07
3.134673366834e+07
3.184422110553e+07
3.234170854271e+07
3.283919597990e+07
3.333668341709e+07
3.383417085427e+07
3.433165829146e+07
3.482914572864e+07
3.532663316583e+07
3.582412060302e+07
3.632160804020e+07
3.681909547739e+07
3.731658291457e+07
3.781407035176e+07
3.831155778894e+07
3.880904522613e+07
3.930653266332e+07
3.980402010050e+07
4.030150753769e+07
4.079899497487e+07
4.129648241206e+07
4.179396984925e+07
4.229145728643e+07
4.278894472362e+07
4.328643216080e+07
4.378391959799e+07
4.428140703518e+07
4.477889447236e+07
4.527638190955e+07
4.577386934673e+07
4.627135678392e+07
4.676884422111e+07
4.726633165829e+07
4.776381909548e+07
4.826130653266e+07
4.875879396985e+07
4.925628140704e+07
4.975376884422e+07
5.025125628141e+07
5.074874371859e+07
5.124623115578e+07
5.174371859296e+07
5.224120603015e+07
5.273869346734e+07
5.323618090452e+07
5.373366834171e+07
5.423115577889e+07
5.472864321608e+07
5.522613065327e+07
5.572361809045e+07
5.622110552764e+07
5.671859296482e+07
5.721608040201e+07
5.771356783920e+07
5.821105527638e+07
5.870854271357e+07
5.920603015075e+07
5.970351758794e+07
6.020100502513e+07
6.069849246231e+07
6.119597989950e+07
6.169346733668e+07
6.219095477387e+07
6.268844221106e+07
6.318592964824e+07
6.368341708543e+07
6.418090452261e+07
6.467839195980e+07
6.517587939698e+07
6.567336683417e+07
6.617085427136e+07
6.666834170854e+07
6.716582914573e+07
6.766331658291e+07
6.816080402010e+07
6.865829145729e+07
6.915577889447e+07
6.965326633166e+07
7.015075376884e+07
7.064824120603e+07
7.114572864322e+07
7.164321608040e+07
7.214070351759e+07
7.263819095477e+07
7.313567839196e+07
7.363316582915e+07
7.413065326633e+07
7.462814070352e+07
7.512562814070e+07
7.562311557789e+07
7.612060301508e+07
7.661809045226e+07
7.711557788945e+07
7.761306532663e+07
7.811055276382e+07
7.860804020100e+07
7.910552763819e+07
7.960301507538e+07
8.010050251256e+07
8.059798994975e+07
8.109547738693e+07
8.159296482412e+07
8.209045226131e+07
8.258793969849e+07
8.308542713568e+07
8.358291457286e+07
8.408040201005e+07
8.457788944724e+07
8.507537688442e+07
8.557286432161e+07
8.607035175879e+07
8.656783919598e+07
8.706532663317e+07
8.756281407035e+07
8.806030150754e+07
8.855778894472e+07
8.905527638191e+07
8.955276381910e+07
9.005025125628e+07
9.054773869347e+07
9.104522613065e+07
9.154271356784e+07
9.204020100502e+07
9.253768844221e+07
9.303517587940e+07
9.353266331658e+07
9.403015075377e+07
9.452763819095e+07
9.502512562814e+07
9.552261306533e+07
9.602010050251e+07
9.651758793970e+07
9.701507537688e+07
9.751256281407e+07
9.801005025126e+07
9.850753768844e+07
9.900502512563e+07
9.950251256281e+07
1.000000000000e+08
</indep>
<dep ac.v(s_1_1) frequency>
-5.363562138117e-02-j2.755487030536e-02
-5.229671671710e-02-j3.490417714376e-02
-5.042781886985e-02-j4.394179831848e-02
-4.810640601241e-02-j5.398335386348e-02
-4.540833940980e-02-j6.486807323982e-02
-4.242097647414e-02-j7.657899055050e-02
-3.924527733933e-02-j8.914602794223e-02
-3.599576410713e-02-j1.026121032249e-01
-3.279965552923e-02-j1.170181284019e-01
-2.979541855594e-02-j1.323948868245e-01
-2.713076289505e-02-j1.487578511783e-01
-2.496006593797e-02-j1.661035126119e-01
-2.344122843584e-02-j1.844067017716e-01
-2.273199635982e-02-j2.036187527731e-01
-2.298583124576e-02-j2.236665193596e-01
-2.434746359068e-02-j2.444523124489e-01
-2.694831508311e-02-j2.658548333975e-01
-3.090201858180e-02-j2.877311466012e-01
-3.630029254568e-02-j3.099196797093e-01
-4.320943284731e-02-j3.322441692639e-01
-5.166766543873e-02-j3.545183940454e-01
-6.168355744350e-02-j3.765514684640e-01
-7.323561501217e-02-j3.981534142573e-01
-8.627311071453e-02-j4.191406988560e-01
-1.007180911095e-01-j4.393414281101e-01
-1.164684275289e-01-j4.585999103251e-01
-1.334017004943e-01-j4.767803639647e-01
-1.513796584846e-01-j4.937696155552e-01
-1.702529693420e-01-j5.094787175314e-01
-1.898659876025e-01-j5.238434978277e-01
-2.100612898968e-01-j5.368241250360e-01
-2.306837770981e-01-j5.484038284304e-01
-2.515841984703e-01-j5.585869478245e-01
-2.726220122896e-01-j5.673965037212e-01
-2.936675528022e-01-j5.748714758657e-01
-3.146035204688e-01-j5.810639618749e-01
-3.353258485789e-01-j5.860363617536e-01
-3.557440237911e-01-j5.898587032997e-01
-3.757809516287e-01-j5.926061915543e-01
-3.953724621111e-01-j5.943570354908e-01
-4.144665476010e-01-j5.951905790656e-01
-4.330224168383e-01-j5.951857425055e-01
-4.510094379987e-01-j5.944197636101e-01
-4.684060311411e-01-j5.929672175786e-01
-4.851985578800e-01-j5.908992868461e-01
-5.013802443643e-01-j5.882832488573e-01
-5.169501632577e-01-j5.851821488051e-01
-5.319122915904e-01-j5.816546253936e-01
-5.462746541888e-01-j5.777548599748e-01
-5.600485567758e-01-j5.735326224528e-01
-5.732479086257e-01-j5.690333907453e-01
-5.858886316442e-01-j5.642985240326e-01
-5.979881507110e-01-j5.593654733233e-01
-6.095649588850e-01-j5.542680159068e-01
-6.206382504210e-01-j5.490365029583e-01
-6.312276143599e-01-j5.436981119120e-01
-6.413527815693e-01-j5.382770972041e-01
-6.510334184570e-01-j5.327950346502e-01
-6.602889610481e-01-j5.272710560762e-01
-6.691384836695e-01-j5.217220719060e-01
-6.776005970624e-01-j5.161629802872e-01
-6.856933713215e-01-j5.106068619899e-01
-6.934342796199e-01-j5.050651608341e-01
-7.008401591961e-01-j4.995478497769e-01
-7.079271865603e-01-j4.940635830663e-01
-7.147108643120e-01-j4.886198350560e-01
-7.212060173424e-01-j4.832230264060e-01
-7.274267965369e-01-j4.778786384621e-01
-7.333866883951e-01-j4.725913166477e-01
-7.390985292350e-01-j4.673649637055e-01
-7.445745228795e-01-j4.622028236163e-01
-7.498262609103e-01-j4.571075569892e-01
-7.548647447333e-01-j4.520813086848e-01
-7.597004088462e-01-j4.471257683841e-01
-7.643431448055e-01-j4.422422247708e-01
-7.688023254943e-01-j4.374316139443e-01
-7.730868293734e-01-j4.326945626318e-01
-7.772050644616e-01-j4.280314267219e-01
-7.811649918560e-01-j4.234423255924e-01
-7.849741486393e-01-j4.189271726680e-01
-7.886396700699e-01-j4.144857025965e-01
-7.921683109751e-01-j4.101174953987e-01
-7.955664662941e-01-j4.058219979127e-01
-7.988401907408e-01-j4.015985428175e-01
-8.019952175720e-01-j3.974463654961e-01
-8.050369764558e-01-j3.933646189707e-01
-8.079706104512e-01-j3.893523871164e-01
-8.108009921143e-01-j3.854086963404e-01
-8.135327387520e-01-j3.815325258949e-01
-8.161702268518e-01-j3.777228169696e-01
-8.187176057153e-01-j3.739784807012e-01
-8.211788103298e-01-j3.702984052156e-01
-8.235575735077e-01-j3.666814618110e-01
-8.258574373319e-01-j3.631265103757e-01
-8.280817639374e-01-j3.596324041271e-01
-8.302337456652e-01-j3.561979937448e-01
-8.323164146208e-01-j3.528221309673e-01
-8.343326516688e-01-j3.495036717118e-01
-8.362851948975e-01-j3.462414787702e-01
-8.381766475800e-01-j3.430344241295e-01
-8.400094856640e-01-j3.398813909594e-01
-8.417860648157e-01-j3.367812753041e-01
-8.435086270456e-01-j3.337329875129e-01
-8.451793069402e-01-j3.307354534402e-01
-8.468001375239e-01-j3.277876154398e-01
-8.483730557734e-01-j3.248884331801e-01
-8.498999078052e-01-j3.220368842984e-01
-8.513824537584e-01-j3.192319649167e-01
-8.528223723875e-01-j3.164726900328e-01
-8.542212653877e-01-j3.137580938038e-01
-8.555806614655e-01-j3.110872297340e-01
-8.569020201726e-01-j3.084591707805e-01
-8.581867355171e-01-j3.058730093856e-01
-8.594361393643e-01-j3.033278574467e-01
-8.606515046435e-01-j3.008228462315e-01
-8.618340483687e-01-j2.983571262455e-01
-8.629849344883e-01-j2.959298670592e-01
-8.641052765709e-01-j2.935402571014e-01
-8.651961403412e-01-j2.911875034209e-01
-8.662585460711e-01-j2.888708314254e-01
-8.672934708375e-01-j2.865894845988e-01
-8.683018506545e-01-j2.843427242007e-01
-8.692845824872e-01-j2.821298289522e-01
-8.702425261531e-01-j2.799500947118e-01
-8.711765061211e-01-j2.778028341400e-01
-8.720873132111e-01-j2.756873763599e-01
-8.729757062010e-01-j2.736030666115e-01
-8.738424133483e-01-j2.715492659039e-01
-8.746881338282e-01-j2.695253506660e-01
-8.755135390968e-01-j2.675307123965e-01
-8.763192741800e-01-j2.655647573156e-01
-8.771059588960e-01-j2.636269060180e-01
-8.778741890130e-01-j2.617165931289e-01
-8.786245373461e-01-j2.598332669637e-01
-8.793575547980e-01-j2.579763891916e-01
-8.800737713455e-01-j2.561454345034e-01
-8.807736969759e-01-j2.543398902852e-01
-8.814578225751e-01-j2.525592562970e-01
-8.821266207715e-01-j2.508030443566e-01
-8.827805467362e-01-j2.490707780307e-01
-8.834200389448e-01-j2.473619923306e-01
-8.840455198992e-01-j2.456762334159e-01
-8.846573968162e-01-j2.440130583024e-01
-8.852560622795e-01-j2.423720345791e-01
-8.858418948622e-01-j2.407527401295e-01
-8.864152597175e-01-j2.391547628603e-01
-8.869765091414e-01-j2.375777004375e-01
-8.875259831089e-01-j2.360211600268e-01
-8.880640097833e-01-j2.344847580430e-01
-8.885909060028e-01-j2.329681199035e-01
-8.891069777429e-01-j2.314708797900e-01
-8.896125205582e-01-j2.299926804153e-01
-8.901078200024e-01-j2.285331727964e-01
-8.905931520301e-01-j2.270920160343e-01
-8.910687833791e-01-j2.256688770984e-01
-8.915349719358e-01-j2.242634306184e-01
-8.919919670835e-01-j2.228753586808e-01
-8.924400100354e-01-j2.215043506308e-01
-8.928793341521e-01-j2.201501028808e-01
-8.933101652454e-01-j2.188123187229e-01
-8.937327218682e-01-j2.174907081481e-01
-8.941472155918e-01-j2.161849876687e-01
-8.945538512708e-01-j2.148948801476e-01
-8.949528272968e-01-j2.136201146312e-01
-8.953443358404e-01-j2.123604261872e-01
-8.957285630836e-01-j2.111155557477e-01
-8.961056894414e-01-j2.098852499555e-01
-8.964758897744e-01-j2.086692610161e-01
-8.968393335924e-01-j2.074673465531e-01
-8.971961852492e-01-j2.062792694678e-01
-8.975466041290e-01-j2.051047978029e-01
-8.978907448254e-01-j2.039437046105e-01
-8.982287573133e-01-j2.027957678229e-01
-8.985607871126e-01-j2.016607701280e-01
-8.988869754459e-01-j2.005384988477e-01
-8.992074593900e-01-j1.994287458205e-01
-8.995223720207e-01-j1.983313072858e-01
-8.998318425520e-01-j1.972459837738e-01
-9.001359964694e-01-j1.961725799965e-01
-9.004349556587e-01-j1.951109047429e-01
-9.007288385284e-01-j1.940607707769e-01
-9.010177601287e-01-j1.930219947378e-01
-9.013018322641e-01-j1.919943970444e-01
-9.015811636039e-01-j1.909778018007e-01
-9.018558597859e-01-j1.899720367051e-01
-9.021260235178e-01-j1.889769329618e-01
-9.023917546740e-01-j1.879923251949e-01
-9.026531503892e-01-j1.870180513645e-01
-9.029103051475e-01-j1.860539526858e-01
-9.031633108691e-01-j1.850998735497e-01
-9.034122569934e-01-j1.841556614459e-01
-9.036572305585e-01-j1.832211668886e-01
-9.038983162786e-01-j1.822962433436e-01
-9.041355966179e-01-j1.813807471575e-01
-9.043691518620e-01-j1.804745374893e-01
-9.045990601864e-01-j1.795774762436e-01
-9.048253977228e-01-j1.786894280052e-01
-9.050482386236e-01-j1.778102599762e-01
-9.052676551221e-01-j1.769398419147e-01
-9.054837175929e-01-j1.760780460745e-01
</dep>
<dep ac.v(y_1_1) frequency>
5.559140519454e-03+j3.093439697456e-04
5.538552155659e-03+j3.909870989536e-04
5.509135111409e-03+j4.901618762680e-04
5.471716316378e-03+j5.987714679763e-04
5.426874941564e-03+j7.145764297309e-04
5.375194034817e-03+j8.369613674428e-04
5.317297327493e-03+j9.658657932948e-04
5.253848356549e-03+j1.101423938506e-03
5.185540253072e-03+j1.243819838772e-03
5.113083063305e-03+j1.393222492230e-03
5.037190896490e-03+j1.549755717621e-03
4.958569897863e-03+j1.713484991728e-03
4.877907559089e-03+j1.884413415777e-03
4.795863634844e-03+j2.062482914278e-03
4.713062780299e-03+j2.247578517111e-03
4.630088914435e-03+j2.439534423614e-03
4.547481233262e-03+j2.638141001139e-03
4.465731739621e-03+j2.843152139314e-03
4.385284118449e-03+j3.054292556821e-03
4.306533765788e-03+j3.271264781766e-03
4.229828773004e-03+j3.493755619407e-03
4.155471671925e-03+j3.721441992182e-03
4.083721758489e-03+j3.953996091757e-03
4.014797830124e-03+j4.191089824610e-03
3.948881192536e-03+j4.432398563608e-03
3.886118813083e-03+j4.677604240161e-03
3.826626519746e-03+j4.926397826198e-03
3.770492164795e-03+j5.178481264127e-03
3.717778690842e-03+j5.433568907129e-03
3.668527053380e-03+j5.691388532945e-03
3.622758967733e-03+j5.951681992439e-03
3.580479460258e-03+j6.214205550775e-03
3.541679212818e-03+j6.478729974268e-03
3.506336697479e-03+j6.745040410854e-03
3.474420103798e-03+j7.012936106490e-03
3.445889065603e-03+j7.282229994439e-03
3.420696197141e-03+j7.552748189142e-03
3.398788450498e-03+j7.824329411563e-03
3.380108307303e-03+j8.096824368441e-03
3.364594818534e-03+j8.370095103995e-03
3.352184506013e-03+j8.644014339092e-03
3.342812139146e-03+j8.918464809933e-03
3.336411399733e-03+j9.193338615724e-03
3.332915447062e-03+j9.468536582504e-03
3.332257394653e-03+j9.743967648676e-03
3.334370709062e-03+j1.001954827601e-02
3.339189540393e-03+j1.029520188885e-02
3.346648993080e-03+j1.057085834311e-02
3.356685344826e-03+j1.084645342591e-02
3.369236220667e-03+j1.112192838593e-02
3.384240728381e-03+j1.139722949436e-02
3.401639560718e-03+j1.167230763554e-02
3.421375069394e-03+j1.194711792636e-02
3.443391315037e-03+j1.222161936340e-02
3.467634096922e-03+j1.249577449622e-02
3.494050965648e-03+j1.276954912567e-02
3.522591221719e-03+j1.304291202556e-02
3.553205902403e-03+j1.331583468641e-02
3.585847758990e-03+j1.358829107971e-02
3.620471226388e-03+j1.386025744140e-02
3.657032386468e-03+j1.413171207315e-02
3.695488926630e-03+j1.440263516011e-02
3.735800094670e-03+j1.467300860400e-02
3.777926650926e-03+j1.494281587024e-02
3.821830818540e-03+j1.521204184819e-02
3.867476232515e-03+j1.548067272325e-02
3.914827888117e-03+j1.574869586004e-02
3.963852089179e-03+j1.601609969571e-02
4.014516396570e-03+j1.628287364248e-02
4.066789577306e-03+j1.654900799875e-02
4.120641554434e-03+j1.681449386796e-02
4.176043357971e-03+j1.707932308464e-02
4.232967077057e-03+j1.734348814697e-02
4.291385813376e-03+j1.760698215534e-02
4.351273636075e-03+j1.786979875634e-02
4.412605538088e-03+j1.813193209182e-02
4.475357394032e-03+j1.839337675242e-02
4.539505919646e-03+j1.865412773535e-02
4.605028632775e-03+j1.891418040596e-02
4.671903815928e-03+j1.917353046276e-02
4.740110480363e-03+j1.943217390563e-02
4.809628331709e-03+j1.969010700699e-02
4.880437737033e-03+j1.994732628546e-02
4.952519693422e-03+j2.020382848208e-02
5.025855797912e-03+j2.045961053871e-02
5.100428218840e-03+j2.071466957834e-02
5.176219668488e-03+j2.096900288731e-02
5.253213377016e-03+j2.122260789925e-02
5.331393067628e-03+j2.147548218037e-02
5.410742932923e-03+j2.172762341634e-02
5.491247612374e-03+j2.197902940029e-02
5.572892170886e-03+j2.222969802202e-02
5.655662078451e-03+j2.247962725826e-02
5.739543190712e-03+j2.272881516391e-02
5.824521730567e-03+j2.297725986408e-02
5.910584270612e-03+j2.322495954699e-02
5.997717716511e-03+j2.347191245761e-02
6.085909291143e-03+j2.371811689184e-02
6.175146519561e-03+j2.396357119150e-02
6.265417214716e-03+j2.420827373962e-02
6.356709463856e-03+j2.445222295642e-02
6.449011615641e-03+j2.469541729566e-02
6.542312267884e-03+j2.493785524141e-02
6.636600255911e-03+j2.517953530517e-02
6.731864641513e-03+j2.542045602343e-02
6.828094702431e-03+j2.566061595536e-02
6.925279922418e-03+j2.590001368098e-02
7.023409981727e-03+j2.613864779944e-02
7.122474748146e-03+j2.637651692757e-02
7.222464268440e-03+j2.661361969867e-02
7.323368760253e-03+j2.684995476147e-02
7.425178604387e-03+j2.708552077922e-02
7.527884337502e-03+j2.732031642902e-02
7.631476645159e-03+j2.755434040115e-02
7.735946355213e-03+j2.778759139872e-02
7.841284431559e-03+j2.802006813723e-02
7.947481968170e-03+j2.825176934440e-02
8.054530183451e-03+j2.848269375992e-02
8.162420414867e-03+j2.871284013550e-02
8.271144113837e-03+j2.894220723474e-02
8.380692840900e-03+j2.917079383326e-02
8.491058261120e-03+j2.939859871880e-02
8.602232139709e-03+j2.962562069143e-02
8.714206337877e-03+j2.985185856366e-02
8.826972808908e-03+j3.007731116077e-02
8.940523594402e-03+j3.030197732108e-02
9.054850820742e-03+j3.052585589624e-02
9.169946695705e-03+j3.074894575157e-02
9.285803505266e-03+j3.097124576643e-02
9.402413610569e-03+j3.119275483461e-02
9.519769445009e-03+j3.141347186465e-02
9.637863511539e-03+j3.163339578031e-02
9.756688380028e-03+j3.185252552096e-02
9.876236684815e-03+j3.207086004196e-02
9.996501122364e-03+j3.228839831516e-02
1.011747444903e-02+j3.250513932923e-02
1.023914947897e-02+j3.272108209015e-02
1.036151908211e-02+j3.293622562159e-02
1.048457618230e-02+j3.315056896538e-02
1.060831375546e-02+j3.336411118188e-02
1.073272482790e-02+j3.357685135043e-02
1.085780247471e-02+j3.378878856974e-02
1.098353981822e-02+j3.399992195831e-02
1.110993002652e-02+j3.421025065479e-02
1.123696631213e-02+j3.441977381841e-02
1.136464193069e-02+j3.462849062936e-02
1.149295017969e-02+j3.483640028909e-02
1.162188439732e-02+j3.504350202080e-02
1.175143796139e-02+j3.524979506965e-02
1.188160428826e-02+j3.545527870324e-02
1.201237683186e-02+j3.565995221183e-02
1.214374908274e-02+j3.586381490874e-02
1.227571456722e-02+j3.606686613062e-02
1.240826684652e-02+j3.626910523774e-02
1.254139951601e-02+j3.647053161431e-02
1.267510620444e-02+j3.667114466880e-02
1.280938057326e-02+j3.687094383408e-02
1.294421631595e-02+j3.706992856780e-02
1.307960715739e-02+j3.726809835260e-02
1.321554685332e-02+j3.746545269630e-02
1.335202918973e-02+j3.766199113217e-02
1.348904798238e-02+j3.785771321915e-02
1.362659707632e-02+j3.805261854198e-02
1.376467034543e-02+j3.824670671150e-02
1.390326169197e-02+j3.843997736473e-02
1.404236504621e-02+j3.863243016508e-02
1.418197436607e-02+j3.882406480253e-02
1.432208363672e-02+j3.901488099372e-02
1.446268687031e-02+j3.920487848213e-02
1.460377810564e-02+j3.939405703821e-02
1.474535140787e-02+j3.958241645948e-02
1.488740086829e-02+j3.976995657062e-02
1.502992060404e-02+j3.995667722359e-02
1.517290475793e-02+j4.014257829774e-02
1.531634749821e-02+j4.032765969982e-02
1.546024301836e-02+j4.051192136412e-02
1.560458553694e-02+j4.069536325247e-02
1.574936929744e-02+j4.087798535436e-02
1.589458856810e-02+j4.105978768689e-02
1.604023764181e-02+j4.124077029487e-02
1.618631083597e-02+j4.142093325084e-02
1.633280249239e-02+j4.160027665507e-02
1.647970697719e-02+j4.177880063552e-02
1.662701868071e-02+j4.195650534797e-02
1.677473201742e-02+j4.213339097586e-02
1.692284142591e-02+j4.230945773038e-02
1.707134136876e-02+j4.248470585041e-02
1.722022633252e-02+j4.265913560248e-02
1.736949082770e-02+j4.283274728074e-02
1.751912938867e-02+j4.300554120694e-02
1.766913657368e-02+j4.317751773035e-02
1.781950696484e-02+j4.334867722768e-02
1.797023516808e-02+j4.351902010307e-02
1.812131581317e-02+j4.368854678800e-02
1.827274355367e-02+j4.385725774121e-02
1.842451306699e-02+j4.402515344859e-02
1.857661905436e-02+j4.419223442311e-02
1.872905624086e-02+j4.435850120477e-02
1.888181937541e-02+j4.452395436045e-02
1.903490323082e-02+j4.468859448377e-02
</dep>
<dep ac.v(z_1_1) frequency>
1.794314460989e+02-j9.870241013745e+00
1.797576964813e+02-j1.251537798619e+01
1.801895190245e+02-j1.579273873971e+01
1.806936976396e+02-j1.946321205544e+01
1.812295598811e+02-j2.347452144639e+01
1.817472539444e+02-j2.782363250641e+01
