<Qucs Dataset 24.2.1>
<indep frequency 200>
1.000000000000e+06
1.497487437186e+06
1.994974874372e+06
2.492462311558e+06
2.989949748744e+06
3.487437185930e+06
3.984924623116e+06
4.482412060302e+06
4.979899497487e+06
5.477386934673e+06
5.974874371859e+06
6.472361809045e+06
6.969849246231e+06
7.467336683417e+06
7.964824120603e+06
8.462311557789e+06
8.959798994975e+06
9.457286432161e+06
9.954773869347e+06
1.045226130653e+07
1.094974874372e+07
1.144723618090e+07
1.194472361809e+07
1.244221105528e+07
1.293969849246e+07
1.343718592965e+07
1.393467336683e+07
1.443216080402e+07
1.492964824121e+07
1.542713567839e+07
1.592462311558e+07
1.642211055276e+07
1.691959798995e+07
1.741708542714e+07
1.791457286432e+07
1.841206030151e+07
1.890954773869e+07
1.940703517588e+07
1.990452261307e+07
2.040201005025e+07
2.089949748744e+07
2.139698492462e+07
2.189447236181e+07
2.239195979899e+07
2.288944723618e+07
2.338693467337e+07
2.388442211055e+07
2.438190954774e+07
2.487939698492e+07
2.537688442211e+07
2.587437185930e+07
2.637185929648e+07
2.686934673367e+07
2.736683417085e+07
2.786432160804e+07
2.836180904523e+07
2.885929648241e+07
2.935678391960e+07
2.985427135678e+07
3.035175879397e+07
3.084924623116e+07
3.134673366834e+07
3.184422110553e+07
3.234170854271e+07
3.283919597990e+07
3.333668341709e+07
3.383417085427e+07
3.433165829146e+07
3.482914572864e+07
3.532663316583e+07
3.582412060302e+07
3.632160804020e+07
3.681909547739e+07
3.731658291457e+07
3.781407035176e+07
3.831155778894e+07
3.880904522613e+07
3.930653266332e+07
3.980402010050e+07
4.030150753769e+07
4.079899497487e+07
4.129648241206e+07
4.179396984925e+07
4.229145728643e+07
4.278894472362e+07
4.328643216080e+07
4.378391959799e+07
4.428140703518e+07
4.477889447236e+07
4.527638190955e+07
4.577386934673e+07
4.627135678392e+07
4.676884422111e+07
4.726633165829e+07
4.776381909548e+07
4.826130653266e+07
4.875879396985e+07
4.925628140704e+07
4.975376884422e+07
5.025125628141e+07
5.074874371859e+07
5.124623115578e+07
5.174371859296e+07
5.224120603015e+07
5.273869346734e+07
5.323618090452e+07
5.373366834171e+07
5.423115577889e+07
5.472864321608e+07
5.522613065327e+07
5.572361809045e+07
5.622110552764e+07
5.671859296482e+07
5.721608040201e+07
5.771356783920e+07
5.821105527638e+07
5.870854271357e+07
5.920603015075e+07
5.970351758794e+07
6.020100502513e+07
6.069849246231e+07
6.119597989950e+07
6.169346733668e+07
6.219095477387e+07
6.268844221106e+07
6.318592964824e+07
6.368341708543e+07
6.418090452261e+07
6.467839195980e+07
6.517587939698e+07
6.567336683417e+07
6.617085427136e+07
6.666834170854e+07
6.716582914573e+07
6.766331658291e+07
6.816080402010e+07
6.865829145729e+07
6.915577889447e+07
6.965326633166e+07
7.015075376884e+07
7.064824120603e+07
7.114572864322e+07
7.164321608040e+07
7.214070351759e+07
7.263819095477e+07
7.313567839196e+07
7.363316582915e+07
7.413065326633e+07
7.462814070352e+07
7.512562814070e+07
7.562311557789e+07
7.612060301508e+07
7.661809045226e+07
7.711557788945e+07
7.761306532663e+07
7.811055276382e+07
7.860804020100e+07
7.910552763819e+07
7.960301507538e+07
8.010050251256e+07
8.059798994975e+07
8.109547738693e+07
8.159296482412e+07
8.209045226131e+07
8.258793969849e+07
8.308542713568e+07
8.358291457286e+07
8.408040201005e+07
8.457788944724e+07
8.507537688442e+07
8.557286432161e+07
8.607035175879e+07
8.656783919598e+07
8.706532663317e+07
8.756281407035e+07
8.806030150754e+07
8.855778894472e+07
8.905527638191e+07
8.955276381910e+07
9.005025125628e+07
9.054773869347e+07
9.104522613065e+07
9.154271356784e+07
9.204020100502e+07
9.253768844221e+07
9.303517587940e+07
9.353266331658e+07
9.403015075377e+07
9.452763819095e+07
9.502512562814e+07
9.552261306533e+07
9.602010050251e+07
9.651758793970e+07
9.701507537688e+07
9.751256281407e+07
9.801005025126e+07
9.850753768844e+07
9.900502512563e+07
9.950251256281e+07
1.000000000000e+08
</indep>
<dep ac.v(s_1_1) frequency>
-2.659079006453e-02-j3.409946927753e-02
-2.762994180432e-02-j4.440532250597e-02
-2.903564377852e-02-j5.597619039483e-02
-3.082295833597e-02-j6.800383908129e-02
-3.299158794139e-02-j8.020640000376e-02
-3.553712710324e-02-j9.245328197055e-02
-3.845324984407e-02-j1.046710749497e-01
-4.173233903133e-02-j1.168121575004e-01
-4.536573579339e-02-j1.288421584418e-01
-4.934387508353e-02-j1.407342817484e-01
-5.365638259641e-02-j1.524664903469e-01
-5.829215768097e-02-j1.640200066926e-01
-6.323945113274e-02-j1.753784685947e-01
-6.848594113747e-02-j1.865274313857e-01
-7.401880847027e-02-j1.974540619471e-01
-7.982481112383e-02-j2.081469428486e-01
-8.589035814141e-02-j2.185959412824e-01
-9.220158225845e-02-j2.287921166765e-01
-9.874441088160e-02-j2.387276514665e-01
-1.055046349397e-01-j2.483957955779e-01
-1.124679751590e-01-j2.577908187724e-01
-1.196201453518e-01-j2.669079672255e-01
-1.269469123699e-01-j2.757434220735e-01
-1.344341524183e-01-j2.842942585712e-01
-1.420679034954e-01-j2.925584050652e-01
-1.498344137771e-01-j3.005346013838e-01
-1.577201858218e-01-j3.082223564904e-01
-1.657120165299e-01-j3.156219054152e-01
-1.737970328389e-01-j3.227341655934e-01
-1.819627231871e-01-j3.295606927996e-01
-1.901969648148e-01-j3.361036369093e-01
-1.984880470171e-01-j3.423656977375e-01
-2.068246904844e-01-j3.483500812060e-01
-2.151960629049e-01-j3.540604560838e-01
-2.235917910140e-01-j3.595009115356e-01
-2.320019693069e-01-j3.646759156819e-01
-2.404171656266e-01-j3.695902753702e-01
-2.488284238624e-01-j3.742490973166e-01
-2.572272639941e-01-j3.786577507578e-01
-2.656056797147e-01-j3.828218317338e-01
-2.739561338699e-01-j3.867471290875e-01
-2.822715519422e-01-j3.904395922531e-01
-2.905453138073e-01-j3.939053008813e-01
-2.987712439753e-01-j3.971504363212e-01
-3.069436005273e-01-j4.001812549779e-01
-3.150570629405e-01-j4.030040635274e-01
-3.231067189878e-01-j4.056251959754e-01
-3.310880508824e-01-j4.080509925211e-01
-3.389969208277e-01-j4.102877801794e-01
-3.468295561205e-01-j4.123418551107e-01
-3.545825339382e-01-j4.142194665943e-01
-3.622527659362e-01-j4.159268025760e-01
-3.698374827597e-01-j4.174699767224e-01
-3.773342185736e-01-j4.188550168996e-01
-3.847407956906e-01-j4.200878550053e-01
-3.920553093807e-01-j4.211743180697e-01
-3.992761129216e-01-j4.221201205498e-01
-4.064018029510e-01-j4.229308577360e-01
-4.134312051658e-01-j4.236120001955e-01
-4.203633604132e-01-j4.241688891737e-01
-4.271975112007e-01-j4.246067328823e-01
-4.339330886542e-01-j4.249306036037e-01
-4.405696999454e-01-j4.251454355373e-01
-4.471071162007e-01-j4.252560233302e-01
-4.535452609020e-01-j4.252670212244e-01
-4.598841987871e-01-j4.251829427630e-01
-4.661241252496e-01-j4.250081609997e-01
-4.722653562356e-01-j4.247469091598e-01
-4.783083186372e-01-j4.244032817032e-01
-4.842535411698e-01-j4.239812357408e-01
-4.901016457296e-01-j4.234845927681e-01
-4.958533392190e-01-j4.229170406688e-01
-5.015094058238e-01-j4.222821359590e-01
-5.070706997371e-01-j4.215833062306e-01
-5.125381383064e-01-j4.208238527721e-01
-5.179126955951e-01-j4.200069533303e-01
-5.231953963418e-01-j4.191356649903e-01
-5.283873102982e-01-j4.182129271528e-01
-5.334895469350e-01-j4.172415645823e-01
-5.385032504944e-01-j4.162242905115e-01
-5.434295953763e-01-j4.151637097810e-01
-5.482697818431e-01-j4.140623220013e-01
-5.530250320224e-01-j4.129225247225e-01
-5.576965861981e-01-j4.117466165972e-01
-5.622856993730e-01-j4.105368005306e-01
-5.667936380856e-01-j4.092951868023e-01
-5.712216774697e-01-j4.080237961553e-01
-5.755710985442e-01-j4.067245628438e-01
-5.798431857150e-01-j4.053993376336e-01
-5.840392244826e-01-j4.040498907486e-01
-5.881604993384e-01-j4.026779147607e-01
-5.922082918393e-01-j4.012850274173e-01
-5.961838788510e-01-j3.998727744053e-01
-6.000885309484e-01-j3.984426320478e-01
-6.039235109611e-01-j3.969960099307e-01
-6.076900726579e-01-j3.955342534602e-01
-6.113894595585e-01-j3.940586463483e-01
-6.150229038645e-01-j3.925704130259e-01
-6.185916255032e-01-j3.910707209839e-01
-6.220968312720e-01-j3.895606830415e-01
-6.255397140820e-01-j3.880413595428e-01
-6.289214522887e-01-j3.865137604819e-01
-6.322432091075e-01-j3.849788475570e-01
-6.355061321037e-01-j3.834375361549e-01
-6.387113527561e-01-j3.818906972665e-01
-6.418599860832e-01-j3.803391593349e-01
-6.449531303331e-01-j3.787837100380e-01
-6.479918667269e-01-j3.772250980050e-01
-6.509772592543e-01-j3.756640344707e-01
-6.539103545167e-01-j3.741011948678e-01
-6.567921816132e-01-j3.725372203588e-01
-6.596237520663e-01-j3.709727193103e-01
-6.624060597849e-01-j3.694082687091e-01
-6.651400810584e-01-j3.678444155247e-01
-6.678267745837e-01-j3.662816780170e-01
-6.704670815173e-01-j3.647205469927e-01
-6.730619255545e-01-j3.631614870128e-01
-6.756122130280e-01-j3.616049375488e-01
-6.781188330321e-01-j3.600513140953e-01
-6.805826575592e-01-j3.585010092348e-01
-6.830045416566e-01-j3.569543936603e-01
-6.853853235973e-01-j3.554118171554e-01
-6.877258250640e-01-j3.538736095336e-01
-6.900268513422e-01-j3.523400815392e-01
-6.922891915275e-01-j3.508115257096e-01
-6.945136187390e-01-j3.492882172019e-01
-6.967008903400e-01-j3.477704145852e-01
-6.988517481684e-01-j3.462583605984e-01
-7.009669187688e-01-j3.447522828760e-01
-7.030471136325e-01-j3.432523946442e-01
-7.050930294386e-01-j3.417588953850e-01
-7.071053483003e-01-j3.402719714743e-01
-7.090847380130e-01-j3.387917967905e-01
-7.110318523023e-01-j3.373185332981e-01
-7.129473310762e-01-j3.358523316057e-01
-7.148318006747e-01-j3.343933314996e-01
-7.166858741219e-01-j3.329416624543e-01
-7.185101513757e-01-j3.314974441213e-01
-7.203052195787e-01-j3.300607867957e-01
-7.220716533053e-01-j3.286317918631e-01
-7.238100148105e-01-j3.272105522264e-01
-7.255208542735e-01-j3.257971527142e-01
-7.272047100422e-01-j3.243916704713e-01
-7.288621088732e-01-j3.229941753315e-01
-7.304935661699e-01-j3.216047301745e-01
-7.320995862190e-01-j3.202233912667e-01
-7.336806624215e-01-j3.188502085870e-01
-7.352372775243e-01-j3.174852261378e-01
-7.367699038446e-01-j3.161284822433e-01
-7.382790034947e-01-j3.147800098330e-01
-7.397650286001e-01-j3.134398367132e-01
-7.412284215171e-01-j3.121079858273e-01
-7.426696150446e-01-j3.107844755029e-01
-7.440890326337e-01-j3.094693196891e-01
-7.454870885931e-01-j3.081625281819e-01
-7.468641882915e-01-j3.068641068409e-01
-7.482207283547e-01-j3.055740577954e-01
-7.495570968611e-01-j3.042923796412e-01
-7.508736735328e-01-j3.030190676288e-01
-7.521708299216e-01-j3.017541138430e-01
-7.534489295935e-01-j3.004975073745e-01
-7.547083283085e-01-j2.992492344832e-01
-7.559493741963e-01-j2.980092787551e-01
-7.571724079298e-01-j2.967776212508e-01
-7.583777628932e-01-j2.955542406481e-01
-7.595657653481e-01-j2.943391133784e-01
-7.607367345958e-01-j2.931322137552e-01
-7.618909831348e-01-j2.919335140990e-01
-7.630288168172e-01-j2.907429848545e-01
-7.641505349993e-01-j2.895605947036e-01
-7.652564306914e-01-j2.883863106727e-01
-7.663467907011e-01-j2.872200982352e-01
-7.674218957769e-01-j2.860619214092e-01
-7.684820207462e-01-j2.849117428503e-01
-7.695274346508e-01-j2.837695239413e-01
-7.705584008794e-01-j2.826352248758e-01
-7.715751772977e-01-j2.815088047399e-01
-7.725780163746e-01-j2.803902215885e-01
-7.735671653052e-01-j2.792794325188e-01
-7.745428661326e-01-j2.781763937403e-01
-7.755053558655e-01-j2.770810606412e-01
-7.764548665934e-01-j2.759933878518e-01
-7.773916255984e-01-j2.749133293050e-01
-7.783158554668e-01-j2.738408382936e-01
-7.792277741949e-01-j2.727758675252e-01
-7.801275952945e-01-j2.717183691740e-01
-7.810155278948e-01-j2.706682949307e-01
-7.818917768431e-01-j2.696255960496e-01
-7.827565428012e-01-j2.685902233932e-01
-7.836100223418e-01-j2.675621274752e-01
-7.844524080405e-01-j2.665412585007e-01
-7.852838885670e-01-j2.655275664048e-01
-7.861046487736e-01-j2.645210008898e-01
-7.869148697818e-01-j2.635215114590e-01
-7.877147290667e-01-j2.625290474505e-01
-7.885044005387e-01-j2.615435580682e-01
-7.892840546246e-01-j2.605649924119e-01
-7.900538583466e-01-j2.595932995050e-01
-7.908139753976e-01-j2.586284283217e-01
-7.915645662165e-01-j2.576703278121e-01
</dep>
<dep ac.v(y_1_1) frequency>
5.260906713048e-03+j3.598667219934e-04
5.262978464527e-03+j4.693271215137e-04
5.265021148313e-03+j5.926599171012e-04
5.267409232265e-03+j7.215516968437e-04
5.270235311008e-03+j8.532184604002e-04
5.273531068288e-03+j9.864628125611e-04
5.277309673027e-03+j1.120683724999e-03
5.281577334814e-03+j1.255545606473e-03
5.286337225299e-03+j1.390845716634e-03
5.291591030137e-03+j1.526453834327e-03
5.297339638650e-03+j1.662282068531e-03
5.303583479407e-03+j1.798268593210e-03
5.310322695999e-03+j1.934368348527e-03
5.317557244795e-03+j2.070547459294e-03
5.325286952168e-03+j2.206779745243e-03
5.333511549435e-03+j2.343044462228e-03
5.342230695021e-03+j2.479324795895e-03
5.351443989009e-03+j2.615606830762e-03
5.361150982934e-03+j2.751878828371e-03
5.371351186570e-03+j2.888130711568e-03
5.382044072793e-03+j3.024353689341e-03
5.393229081054e-03+j3.160539979458e-03
5.404905620012e-03+j3.296682600414e-03
5.417073069468e-03+j3.432775213263e-03
5.429730781880e-03+j3.568811999932e-03
5.442878083543e-03+j3.704787568553e-03
5.456514275502e-03+j3.840696879079e-03
5.470638634306e-03+j3.976535184272e-03
5.485250412591e-03+j4.112297982487e-03
5.500348839565e-03+j4.247980979610e-03
5.515933121400e-03+j4.383580058114e-03
5.532002441571e-03+j4.519091251778e-03
5.548555961108e-03+j4.654510724842e-03
5.565592818842e-03+j4.789834754775e-03
5.583112131551e-03+j4.925059717920e-03
5.601112994171e-03+j5.060182077485e-03
5.619594479898e-03+j5.195198373442e-03
5.638555640299e-03+j5.330105214018e-03
5.657995505430e-03+j5.464899268461e-03
5.677913083908e-03+j5.599577260916e-03
5.698307363004e-03+j5.734135965168e-03
5.719177308711e-03+j5.868572200169e-03
5.740521865798e-03+j6.002882826198e-03
5.762339957900e-03+j6.137064741531e-03
5.784630487553e-03+j6.271114879618e-03
5.807392336282e-03+j6.405030206598e-03
5.830624364662e-03+j6.538807719192e-03
5.854325412365e-03+j6.672444442853e-03
5.878494298253e-03+j6.805937430170e-03
5.903129820438e-03+j6.939283759495e-03
5.928230756356e-03+j7.072480533735e-03
5.953795862865e-03+j7.205524879330e-03
5.979823876298e-03+j7.338413945336e-03
6.006313512590e-03+j7.471144902669e-03
6.033263467337e-03+j7.603714943409e-03
6.060672415920e-03+j7.736121280244e-03
6.088539013598e-03+j7.868361145967e-03
6.116861895624e-03+j8.000431793049e-03
6.145639677341e-03+j8.132330493264e-03
6.174870954323e-03+j8.264054537394e-03
6.204554302500e-03+j8.395601234974e-03
6.234688278252e-03+j8.526967914058e-03
6.265271418583e-03+j8.658151921054e-03
6.296302241244e-03+j8.789150620577e-03
6.327779244862e-03+j8.919961395324e-03
6.359700909100e-03+j9.050581645985e-03
6.392065694812e-03+j9.181008791189e-03
6.424872044187e-03+j9.311240267435e-03
6.458118380900e-03+j9.441273529091e-03
6.491803110303e-03+j9.571106048353e-03
6.525924619552e-03+j9.700735315249e-03
6.560481277814e-03+j9.830158837679e-03
6.595471436393e-03+j9.959374141396e-03
6.630893428966e-03+j1.008837877008e-02
6.666745571705e-03+j1.021717028534e-02
6.703026163478e-03+j1.034574626679e-02
6.739733486045e-03+j1.047410431210e-02
6.776865804228e-03+j1.060224203702e-02
6.814421366108e-03+j1.073015707552e-02
6.852398403210e-03+j1.085784707977e-02
6.890795130691e-03+j1.098530972026e-02
6.929609747557e-03+j1.111254268587e-02
6.968840436827e-03+j1.123954368393e-02
7.008485365769e-03+j1.136631044030e-02
7.048542686069e-03+j1.149284069949e-02
7.089010534044e-03+j1.161913222466e-02
7.129887030856e-03+j1.174518279777e-02
7.171170282707e-03+j1.187099021964e-02
7.212858381044e-03+j1.199655230999e-02
7.254949402774e-03+j1.212186690760e-02
7.297441410464e-03+j1.224693187032e-02
7.340332452568e-03+j1.237174507518e-02
7.383620563624e-03+j1.249630441845e-02
7.427303764464e-03+j1.262060781575e-02
7.471380062442e-03+j1.274465320210e-02
7.515847451643e-03+j1.286843853200e-02
7.560703913094e-03+j1.299196177949e-02
7.605947414977e-03+j1.311522093826e-02
7.651575912857e-03+j1.323821402168e-02
7.697587349896e-03+j1.336093906291e-02
7.743979657065e-03+j1.348339411491e-02
7.790750753372e-03+j1.360557725056e-02
7.837898546068e-03+j1.372748656270e-02
7.885420930878e-03+j1.384912016417e-02
7.933315792222e-03+j1.397047618794e-02
7.981581003427e-03+j1.409155278706e-02
8.030214426949e-03+j1.421234813482e-02
8.079213914598e-03+j1.433286042473e-02
8.128577307761e-03+j1.445308787062e-02
8.178302437614e-03+j1.457302870663e-02
8.228387125355e-03+j1.469268118733e-02
8.278829182410e-03+j1.481204358771e-02
8.329626410670e-03+j1.493111420325e-02
8.380776602703e-03+j1.504989134991e-02
8.432277541978e-03+j1.516837336424e-02
8.484127003095e-03+j1.528655860336e-02
8.536322751978e-03+j1.540444544503e-02
8.588862546138e-03+j1.552203228762e-02
8.641744134846e-03+j1.563931755023e-02
8.694965259401e-03+j1.575629967263e-02
8.748523653313e-03+j1.587297711531e-02
8.802417042541e-03+j1.598934835951e-02
8.856643145707e-03+j1.610541190726e-02
8.911199674319e-03+j1.622116628133e-02
8.966084332982e-03+j1.633661002531e-02
9.021294819622e-03+j1.645174170357e-02
9.076828825708e-03+j1.656655990131e-02
9.132684036449e-03+j1.668106322452e-02
9.188858131047e-03+j1.679525030005e-02
9.245348782863e-03+j1.690911977554e-02
9.302153659684e-03+j1.702267031945e-02
9.359270423897e-03+j1.713590062107e-02
9.416696732723e-03+j1.724880939050e-02
9.474430238430e-03+j1.736139535863e-02
9.532468588537e-03+j1.747365727716e-02
9.590809426029e-03+j1.758559391854e-02
9.649450389576e-03+j1.769720407603e-02
9.708389113722e-03+j1.780848656358e-02
9.767623229121e-03+j1.791944021592e-02
9.827150362718e-03+j1.803006388845e-02
9.886968137979e-03+j1.814035645728e-02
9.947074175092e-03+j1.825031681913e-02
1.000746609115e-02+j1.835994389141e-02
1.006814150040e-02+j1.846923661208e-02
1.012909801437e-02+j1.857819393967e-02
1.019033324219e-02+j1.868681485328e-02
1.025184479067e-02+j1.879509835241e-02
1.031363026457e-02+j1.890304345713e-02
1.037568726678e-02+j1.901064920781e-02
1.043801339852e-02+j1.911791466530e-02
1.050060625955e-02+j1.922483891068e-02
1.056346344832e-02+j1.933142104536e-02
1.062658256224e-02+j1.943766019096e-02
1.068996119778e-02+j1.954355548928e-02
1.075359695074e-02+j1.964910610223e-02
1.081748741640e-02+j1.975431121183e-02
1.088163018973e-02+j1.985917002006e-02
1.094602286555e-02+j1.996368174887e-02
1.101066303874e-02+j2.006784564014e-02
1.107554830444e-02+j2.017166095555e-02
1.114067625816e-02+j2.027512697653e-02
1.120604449607e-02+j2.037824300424e-02
1.127165061508e-02+j2.048100835945e-02
1.133749221309e-02+j2.058342238253e-02
1.140356688915e-02+j2.068548443331e-02
1.146987224359e-02+j2.078719389103e-02
1.153640587827e-02+j2.088855015433e-02
1.160316539670e-02+j2.098955264106e-02
1.167014840423e-02+j2.109020078830e-02
1.173735250823e-02+j2.119049405222e-02
1.180477531822e-02+j2.129043190805e-02
1.187241444611e-02+j2.139001384994e-02
1.194026750627e-02+j2.148923939092e-02
1.200833211580e-02+j2.158810806282e-02
1.207660589459e-02+j2.168661941614e-02
1.214508646556e-02+j2.178477301998e-02
1.221377145478e-02+j2.188256846197e-02
1.228265849163e-02+j2.198000534820e-02
1.235174520898e-02+j2.207708330303e-02
1.242102924331e-02+j2.217380196910e-02
1.249050823489e-02+j2.227016100720e-02
1.256017982793e-02+j2.236616009618e-02
1.263004167071e-02+j2.246179893277e-02
1.270009141575e-02+j2.255707723166e-02
1.277032671993e-02+j2.265199472521e-02
1.284074524466e-02+j2.274655116350e-02
1.291134465604e-02+j2.284074631411e-02
1.298212262494e-02+j2.293457996211e-02
1.305307682719e-02+j2.302805190988e-02
1.312420494370e-02+j2.312116197706e-02
1.319550466061e-02+j2.321391000045e-02
1.326697366941e-02+j2.330629583382e-02
1.333860966707e-02+j2.339831934789e-02
1.341041035618e-02+j2.348998043020e-02
1.348237344509e-02+j2.358127898500e-02
1.355449664801e-02+j2.367221493308e-02
1.362677768517e-02+j2.376278821173e-02
1.369921428290e-02+j2.385299877465e-02
1.377180417380e-02+j2.394284659173e-02
1.384454509684e-02+j2.403233164902e-02
</dep>
<dep ac.v(z_1_1) frequency>
1.892236700790e+02-j1.291478724841e+01
1.885324538370e+02-j1.676723726324e+01
1.875778422259e+02-j2.105290645444e+01
1.863674335415e+02-j2.545004266603e+01
1.849118927312e+02-j2.983832838348e+01
1.832239853614e+02-j3.415642657395e+01
